Title: * half wave rectifier
Date: Wed Nov 26 18:09:07  2025
Plotname: Transient Analysis
Flags: real
No. Variables: 4
No. Points: 59
Variables:
	0	time	time
	1	v(in)	voltage
	2	v(out)	voltage
	3	i(vin)	current
Values:
 0	0.000000000000000e+00
	0.000000000000000e+00
	-7.323378444748195e-29
	7.323378444748196e-32

 1	5.000000000000001e-07
	3.141587485879564e-02
	4.356200882623397e-11
	-4.356200882623397e-14

 2	1.000000000000000e-06
	6.283143965558952e-02
	1.663311066390225e-10
	-1.663311066390224e-13

 3	2.000000000000000e-06
	1.256603988335261e-01
	1.403754248316448e-09
	-1.403754248316449e-12

 4	4.000000000000001e-06
	2.513009544333749e-01
	1.660315527123730e-07
	-1.660315527123730e-10

 5	8.000000000000001e-06
	5.024431817976956e-01
	2.481905669488381e-03
	-2.481905669488378e-06

 6	1.600000000000000e-05
	1.003617148512149e+00
	3.735818903540775e-01
	-3.735818903540782e-04

 7	3.200000000000001e-05
	1.997099805144070e+00
	1.334465204845568e+00
	-1.334465204845564e-03

 8	6.400000000000001e-05
	3.913736668372025e+00
	3.227470099511202e+00
	-3.227470099511076e-03

 9	1.280000000000000e-04
	7.203090248879070e+00
	6.497081620909719e+00
	-6.497081620909562e-03

 10	2.280000000000000e-04
	9.904614256966513e+00
	9.183547897324292e+00
	-9.183547897324118e-03

 11	3.280000000000000e-04
	8.822912264349533e+00
	8.111898012437518e+00
	-8.111898012437280e-03

 12	4.280000000000000e-04
	4.371157666509329e+00
	3.679887803445727e+00
	-3.679887803445636e-03

 13	5.280000000000000e-04
	-1.750230589752761e+00
	-1.760230586523998e-09
	1.760230586523998e-12

 14	6.280000000000001e-04
	-7.203090248879072e+00
	-7.213090245314326e-09
	7.213090245314325e-12

 15	7.280000000000001e-04
	-9.904614256966513e+00
	-9.914614246862322e-09
	9.914614246862320e-12

 16	8.280000000000002e-04
	-8.822912264349528e+00
	-8.832912255295967e-09
	8.832912255295968e-12

 17	9.280000000000002e-04
	-4.371157666509317e+00
	-4.381157660971914e-09
	4.381157660971914e-12

 18	1.028000000000000e-03
	1.750230589752773e+00
	1.092758827138075e+00
	-1.092758827138066e-03

 19	1.128000000000000e-03
	7.203090248879084e+00
	6.493060912912756e+00
	-6.493060912912796e-03

 20	1.228000000000000e-03
	9.904614256966514e+00
	9.183450636043885e+00
	-9.183450636044199e-03

 21	1.328000000000000e-03
	8.822912264349519e+00
	8.105872307429186e+00
	-8.105872307429429e-03

 22	1.428000000000000e-03
	4.371157666509303e+00
	3.681105551003064e+00
	-3.681105551003094e-03

 23	1.528000000000000e-03
	-1.750230589752789e+00
	-1.760230794744197e-09
	1.760230794744197e-12

 24	1.628000000000001e-03
	-7.203090248879089e+00
	-7.213090245322260e-09
	7.213090245322260e-12

 25	1.728000000000001e-03
	-9.904614256966516e+00
	-9.914614246862325e-09
	9.914614246862324e-12

 26	1.828000000000001e-03
	-8.822912264349512e+00
	-8.832912255295952e-09
	8.832912255295954e-12

 27	1.928000000000001e-03
	-4.371157666509304e+00
	-4.381157660971901e-09
	4.381157660971900e-12

 28	2.028000000000001e-03
	1.750230589752805e+00
	1.092758827138107e+00
	-1.092758827138107e-03

 29	2.128000000000001e-03
	7.203090248879088e+00
	6.493060912912759e+00
	-6.493060912913684e-03

 30	2.228000000000000e-03
	9.904614256966513e+00
	9.183450636043915e+00
	-9.183450636044199e-03

 31	2.328000000000000e-03
	8.822912264349528e+00
	8.105872307429234e+00
	-8.105872307429429e-03

 32	2.428000000000000e-03
	4.371157666509337e+00
	3.681105551003106e+00
	-3.681105551002983e-03

 33	2.528000000000000e-03
	-1.750230589752751e+00
	-1.760230794744159e-09
	1.760230794744159e-12

 34	2.628000000000000e-03
	-7.203090248879038e+00
	-7.213090245322209e-09
	7.213090245322209e-12

 35	2.728000000000000e-03
	-9.904614256966507e+00
	-9.914614246862314e-09
	9.914614246862314e-12

 36	2.827999999999999e-03
	-8.822912264349554e+00
	-8.832912255295995e-09
	8.832912255295997e-12

 37	2.927999999999999e-03
	-4.371157666509403e+00
	-4.381157660972001e-09
	4.381157660972000e-12

 38	3.027999999999999e-03
	1.750230589752715e+00
	1.092758827138020e+00
	-1.092758827138010e-03

 39	3.127999999999999e-03
	7.203090248879013e+00
	6.493060912912685e+00
	-6.493060912912796e-03

 40	3.227999999999999e-03
	9.904614256966500e+00
	9.183450636043947e+00
	-9.183450636044199e-03

 41	3.327999999999998e-03
	8.822912264349588e+00
	8.105872307429344e+00
	-8.105872307431206e-03

 42	3.427999999999998e-03
	4.371157666509434e+00
	3.681105551003212e+00
	-3.681105551003205e-03

 43	3.527999999999998e-03
	-1.750230589752644e+00
	-1.760230794744052e-09
	1.760230794744052e-12

 44	3.627999999999998e-03
	-7.203090248878961e+00
	-7.213090245322132e-09
	7.213090245322133e-12

 45	3.727999999999998e-03
	-9.904614256966497e+00
	-9.914614246862305e-09
	9.914614246862304e-12

 46	3.827999999999998e-03
	-8.822912264349604e+00
	-8.832912255296045e-09
	8.832912255296046e-12

 47	3.927999999999997e-03
	-4.371157666509500e+00
	-4.381157660972099e-09
	4.381157660972098e-12

 48	4.027999999999998e-03
	1.750230589752608e+00
	1.092758827137916e+00
	-1.092758827137927e-03

 49	4.127999999999998e-03
	7.203090248878986e+00
	6.493060912912658e+00
	-6.493060912912796e-03

 50	4.227999999999998e-03
	9.904614256966495e+00
	9.183450636044066e+00
	-9.183450636044199e-03

 51	4.327999999999999e-03
	8.822912264349590e+00
	8.105872307429493e+00
	-8.105872307430317e-03

 52	4.427999999999999e-03
	4.371157666509405e+00
	3.681105551003211e+00
	-3.681105551003316e-03

 53	4.527999999999999e-03
	-1.750230589752677e+00
	-1.760230794744085e-09
	1.760230794744085e-12

 54	4.627999999999999e-03
	-7.203090248879035e+00
	-7.213090245322206e-09
	7.213090245322206e-12

 55	4.728000000000000e-03
	-9.904614256966509e+00
	-9.914614246862317e-09
	9.914614246862317e-12

 56	4.828000000000000e-03
	-8.822912264349556e+00
	-8.832912255295997e-09
	8.832912255295999e-12

 57	4.928000000000000e-03
	-4.371157666509343e+00
	-4.381157660971941e-09
	4.381157660971941e-12

 58	5.000000000000000e-03
	-1.224646799147353e-14
	-9.999412911779239e-12
	9.999412911779241e-15

