Title: * half wave rectifier
Date: Wed Nov 26 18:17:30  2025
Plotname: Transient Analysis
Flags: real
No. Variables: 4
No. Points: 408
Variables:
	0	time	time
	1	v(in)	voltage
	2	v(out)	voltage
	3	i(vin)	current
Values:
 0	0.000000000000000e+00
	0.000000000000000e+00
	-7.323378444748195e-29
	7.323378444748196e-32

 1	1.000000000000000e-06
	3.141592601912666e-02
	4.356207976638131e-11
	-4.356207976638131e-14

 2	2.000000000000000e-06
	6.283184893762572e-02
	1.663333119427942e-10
	-1.663333119427943e-13

 3	4.000000000000001e-06
	1.256636730702326e-01
	1.403920597049845e-09
	-1.403920597049844e-12

 4	8.000000000000001e-06
	2.513271477003727e-01
	1.661995958927580e-07
	-1.661995958927579e-10

 5	1.600000000000000e-05
	5.026527078818863e-01
	2.500312737193686e-03
	-2.500312737193685e-06

 6	3.200000000000001e-05
	1.005292715673065e+00
	3.751661629869262e-01
	-3.751661629869240e-04

 7	6.400000000000001e-05
	2.010483832545758e+00
	1.347597794673245e+00
	-1.347597794673264e-03

 8	1.280000000000000e-04
	4.020154936295320e+00
	3.333082726779760e+00
	-3.333082726779790e-03

 9	2.280000000000000e-04
	7.156707866141768e+00
	6.446464926751656e+00
	-6.446464926751716e-03

 10	3.280000000000000e-04
	1.028619798936415e+01
	9.566659292657489e+00
	-9.566659292657320e-03

 11	4.280000000000000e-04
	1.340553687703875e+01
	1.268359206229341e+01
	-1.268359206229341e-02

 12	5.280000000000000e-04
	1.651164611828581e+01
	1.578507508145557e+01
	-1.578507508145499e-02

 13	6.280000000000001e-04
	1.960146035828931e+01
	1.887036168736650e+01
	-1.887036168736600e-02

 14	7.280000000000001e-04
	2.267193032343216e+01
	2.193692944276230e+01
	-2.193692944276648e-02

 15	8.280000000000002e-04
	2.572002583056111e+01
	2.498166518597844e+01
	-2.498166518597600e-02

 16	9.280000000000002e-04
	2.874273877741164e+01
	2.800142907290472e+01
	-2.800142907289782e-02

 17	1.028000000000000e-03
	3.173708611124178e+01
	3.099315208001638e+01
	-3.099315208001485e-02

 18	1.128000000000000e-03
	3.470011277274496e+01
	3.395381964036720e+01
	-3.395381964035948e-02

 19	1.228000000000000e-03
	3.762889461233683e+01
	3.688046337260852e+01
	-3.688046337261142e-02

 20	1.328000000000000e-03
	4.052054127593782e+01
	3.977015918717176e+01
	-3.977015918717086e-02

 21	1.428000000000000e-03
	4.337219905740369e+01
	4.262002710304432e+01
	-4.262002710304102e-02

 22	1.528000000000000e-03
	4.618105371478897e+01
	4.542723202447264e+01
	-4.542723202447974e-02

 23	1.628000000000001e-03
	4.894433324766393e+01
	4.818898512913018e+01
	-4.818898512914416e-02

 24	1.728000000000001e-03
	5.165931063274441e+01
	5.090254563254805e+01
	-5.090254563253893e-02

 25	1.828000000000001e-03
	5.432330651513450e+01
	5.356522278392031e+01
	-5.356522278390230e-02

 26	1.928000000000001e-03
	5.693369185252646e+01
	5.617437800188703e+01
	-5.617437800187020e-02

 27	2.028000000000001e-03
	5.948789050974788e+01
	5.872742709050590e+01
	-5.872742709047429e-02

 28	2.128000000000001e-03
	6.198338180109624e+01
	6.122184249504834e+01
	-6.122184249505835e-02

 29	2.228000000000000e-03
	6.441770297795128e+01
	6.365515556954058e+01
	-6.365515556953483e-02

 30	2.328000000000000e-03
	6.678845165921064e+01
	6.602495883594005e+01
	-6.602495883595338e-02

 31	2.428000000000000e-03
	6.909328820214982e+01
	6.832890822013032e+01
	-6.832890822013837e-02

 32	2.528000000000000e-03
	7.132993801136728e+01
	7.056472525351272e+01
	-7.056472525349022e-02

 33	2.628000000000000e-03
	7.349619378353528e+01
	7.273019923146384e+01
	-7.273019923144375e-02

 34	2.728000000000000e-03
	7.558991768574195e+01
	7.482318932169204e+01
	-7.482318932167686e-02

 35	2.827999999999999e-03
	7.760904346527414e+01
	7.684162661679778e+01
	-7.684162661675487e-02

 36	2.927999999999999e-03
	7.955157848875947e+01
	7.878351612628032e+01
	-7.878351612626489e-02

 37	3.027999999999999e-03
	8.141560570865488e+01
	8.064693870393599e+01
	-8.064693870394990e-02

 38	3.127999999999999e-03
	8.319928555514103e+01
	8.243005290713428e+01
	-8.243005290717065e-02

 39	3.227999999999999e-03
	8.490085775155573e+01
	8.413109678488040e+01
	-8.413109678485853e-02

 40	3.327999999999998e-03
	8.651864305157444e+01
	8.574838959191266e+01
	-8.574838959191311e-02

 41	3.427999999999998e-03
	8.805104489642359e+01
	8.728033342636112e+01
	-8.728033342629260e-02

 42	3.527999999999998e-03
	8.949655099049146e+01
	8.872541478872755e+01
	-8.872541478865514e-02

 43	3.627999999999998e-03
	9.085373479378124e+01
	9.008220606014679e+01
	-9.008220606011719e-02

 44	3.727999999999998e-03
	9.212125692973392e+01
	9.134936689806609e+01
	-9.134936689798678e-02

 45	3.827999999999998e-03
	9.329786650703106e+01
	9.252564554763549e+01
	-9.252564554765286e-02

 46	3.927999999999997e-03
	9.438240235407370e+01
	9.360988006724716e+01
	-9.360988006727666e-02

 47	4.027999999999998e-03
	9.537379416491841e+01
	9.460099946679313e+01
	-9.460099946676337e-02

 48	4.127999999999998e-03
	9.627106355554004e+01
	9.549802475733777e+01
	-9.549802475731894e-02

 49	4.227999999999998e-03
	9.707332502937872e+01
	9.630006991101973e+01
	-9.630006991096707e-02

 50	4.327999999999999e-03
	9.777978685121796e+01
	9.700634273011227e+01
	-9.700634273008291e-02

 51	4.427999999999999e-03
	9.838975182853179e+01
	9.761614562428383e+01
	-9.761614562421528e-02

 52	4.527999999999999e-03
	9.890261799952953e+01
	9.812887629520752e+01
	-9.812887629527722e-02

 53	4.627999999999999e-03
	9.931787922721952e+01
	9.854402832777636e+01
	-9.854402832775122e-02

 54	4.728000000000000e-03
	9.963512569890511e+01
	9.886119168728472e+01
	-9.886119168726282e-02

 55	4.828000000000000e-03
	9.985404433062040e+01
	9.908005312204283e+01
	-9.908005312206569e-02

 56	4.928000000000000e-03
	9.997441907610623e+01
	9.920039647099178e+01
	-9.920039647090562e-02

 57	5.028000000000000e-03
	9.999613114002183e+01
	9.922210287599111e+01
	-9.922210287606958e-02

 58	5.128000000000001e-03
	9.991915909518144e+01
	9.914515089855287e+01
	-9.914515089855058e-02

 59	5.228000000000001e-03
	9.974357890370038e+01
	9.896961654089714e+01
	-9.896961654095549e-02

 60	5.328000000000001e-03
	9.946956384202959e+01
	9.869567317130742e+01
	-9.869567317133487e-02

 61	5.428000000000001e-03
	9.909738432995269e+01
	9.832359135386488e+01
	-9.832359135390334e-02

 62	5.528000000000002e-03
	9.862740766371432e+01
	9.785373858274285e+01
	-9.785373858267121e-02

 63	5.628000000000002e-03
	9.806009765354311e+01
	9.728657892134524e+01
	-9.728657892128467e-02

 64	5.728000000000002e-03
	9.739601416592690e+01
	9.662267254667485e+01
	-9.662267254668677e-02

 65	5.828000000000002e-03
	9.663581257109223e+01
	9.586267519942064e+01
	-9.586267519938474e-02

 66	5.928000000000003e-03
	9.578024309623292e+01
	9.500733754035615e+01
	-9.500733754032353e-02

 67	6.028000000000003e-03
	9.483015008512650e+01
	9.405750441374737e+01
	-9.405750441379723e-02

 68	6.128000000000003e-03
	9.378647116486884e+01
	9.301411401857276e+01
	-9.301411401855830e-02

 69	6.228000000000003e-03
	9.265023632054935e+01
	9.187819698846623e+01
	-9.187819698848898e-02

 70	6.328000000000004e-03
	9.142256687878006e+01
	9.065087538140519e+01
	-9.065087538135685e-02

 71	6.428000000000004e-03
	9.010467440108167e+01
	8.933336158027674e+01
	-8.933336158025895e-02

 72	6.528000000000004e-03
	8.869785948821860e+01
	8.792695710557433e+01
	-8.792695710559428e-02

 73	6.628000000000005e-03
	8.720351049666296e+01
	8.643305134159756e+01
	-8.643305134165757e-02

 74	6.728000000000005e-03
	8.562310216845457e+01
	8.485312017765951e+01
	-8.485312017762681e-02

 75	6.828000000000005e-03
	8.395819417580832e+01
	8.318872456594195e+01
	-8.318872456590043e-02

 76	6.928000000000005e-03
	8.221042958190614e+01
	8.144150899779262e+01
	-8.144150899778424e-02

 77	7.028000000000006e-03
	8.038153321939210e+01
	7.961319990042320e+01
	-7.961319990045013e-02

 78	7.128000000000006e-03
	7.847330998817060e+01
	7.770560395615695e+01
	-7.770560395613302e-02

 79	7.228000000000006e-03
	7.648764307418830e+01
	7.572060634659249e+01
	-7.572060634660716e-02

 80	7.328000000000006e-03
	7.442649209095686e+01
	7.366016892430676e+01
	-7.366016892430594e-02

 81	7.428000000000007e-03
	7.229189114565092e+01
	7.152632831503051e+01
	-7.152632831500227e-02

 82	7.528000000000007e-03
	7.008594683169001e+01
	6.932119395361353e+01
	-6.932119395358427e-02

 83	7.628000000000007e-03
	6.781083614978515e+01
	6.704694605758030e+01
	-6.704694605753048e-02

 84	7.728000000000007e-03
	6.546880435950190e+01
	6.470583354270211e+01
	-6.470583354266068e-02

 85	7.828000000000007e-03
	6.306216276346035e+01
	6.230017188583812e+01
	-6.230017188579495e-02

 86	7.928000000000006e-03
	6.059328642635847e+01
	5.983234094140778e+01
	-5.983234094139789e-02

 87	8.028000000000006e-03
	5.806461183106993e+01
	5.730478271938537e+01
	-5.730478271939887e-02

 88	8.128000000000005e-03
	5.547863447412959e+01
	5.471999913484912e+01
	-5.471999913486059e-02

 89	8.228000000000004e-03
	5.283790640298008e+01
	5.208054974218127e+01
	-5.208054974220033e-02

 90	8.328000000000004e-03
	5.014503369740850e+01
	4.938904947149037e+01
	-4.938904947150036e-02

 91	8.428000000000003e-03
	4.740267389766090e+01
	4.664816639151403e+01
	-4.664816639152036e-02

 92	8.528000000000003e-03
	4.461353338177053e+01
	4.386061953347526e+01
	-4.386061953347564e-02

 93	8.628000000000002e-03
	4.178036469468943e+01
	4.102917682639586e+01
	-4.102917682639884e-02

 94	8.728000000000001e-03
	3.890596383185931e+01
	3.815665322022895e+01
	-3.815665322022710e-02

 95	8.828000000000001e-03
	3.599316747990105e+01
	3.524590911623608e+01
	-3.524590911622028e-02

 96	8.928000000000000e-03
	3.304485021714785e+01
	3.229984929838160e+01
	-3.229984929838281e-02

 97	9.028000000000000e-03
	3.006392167678352e+01
	2.932142269325429e+01
	-2.932142269325055e-02

 98	9.127999999999999e-03
	2.705332367538538e+01
	2.631362353845278e+01
	-2.631362353844935e-02

 99	9.227999999999998e-03
	2.401602730970707e+01
	2.327949504358008e+01
	-2.327949504357818e-02

 100	9.327999999999998e-03
	2.095503002456415e+01
	2.022213770605033e+01
	-2.022213770604964e-02

 101	9.427999999999997e-03
	1.787335265471841e+01
	1.714472694953951e+01
	-1.714472694953884e-02

 102	9.527999999999997e-03
	1.477403644367849e+01
	1.405055122095994e+01
	-1.405055122096144e-02

 103	9.627999999999996e-03
	1.166014004235970e+01
	1.094310082176659e+01
	-1.094310082176708e-02

 104	9.727999999999995e-03
	8.534736490564859e+00
	7.826305974310268e+00
	-7.826305974310888e-03

 105	9.827999999999995e-03
	5.400910184265058e+00
	4.705341805831042e+00
	-4.705341805831154e-03

 106	9.927999999999994e-03
	2.261753831673175e+00
	1.594302937841134e+00
	-1.594302937841130e-03

 107	1.002799999999999e-02
	-8.796345988856742e-01
	-8.896476050356414e-10
	8.896476050356414e-13

 108	1.012799999999999e-02
	-4.020154936295085e+00
	-4.030154948050658e-09
	4.030154948050658e-12

 109	1.022799999999999e-02
	-7.156707866141515e+00
	-7.166707858340247e-09
	7.166707858340246e-12

 110	1.032799999999999e-02
	-1.028619798936392e+01
	-1.029619797885400e-08
	1.029619797885400e-11

 111	1.042799999999999e-02
	-1.340553687703847e+01
	-1.341553686352638e-08
	1.341553686352638e-11

 112	1.052799999999999e-02
	-1.651164611828550e+01
	-1.652164610171218e-08
	1.652164610171218e-11

 113	1.062799999999999e-02
	-1.960146035828903e+01
	-1.961146033864669e-08
	1.961146033864669e-11

 114	1.072799999999999e-02
	-2.267193032343178e+01
	-2.268193030072989e-08
	2.268193030072990e-11

 115	1.082799999999999e-02
	-2.572002583056075e+01
	-2.573002580481706e-08
	2.573002580481706e-11

 116	1.092799999999999e-02
	-2.874273877741128e+01
	-2.875273874864874e-08
	2.875273874864874e-11

 117	1.102799999999999e-02
	-3.173708611124135e+01
	-3.174708607948700e-08
	3.174708607948699e-11

 118	1.112799999999999e-02
	-3.470011277274456e+01
	-3.471011273802889e-08
	3.471011273802888e-11

 119	1.122799999999999e-02
	-3.762889461233642e+01
	-3.763889457469316e-08
	3.763889457469316e-11

 120	1.132799999999999e-02
	-4.052054127593735e+01
	-4.053054123540332e-08
	4.053054123540332e-11

 121	1.142799999999999e-02
	-4.337219905740326e+01
	-4.338219901401821e-08
	4.338219901401821e-11

 122	1.152799999999998e-02
	-4.618105371478853e+01
	-4.619105366859511e-08
	4.619105366859511e-11

 123	1.162799999999998e-02
	-4.894433324766343e+01
	-4.895433319870711e-08
	4.895433319870711e-11

 124	1.172799999999998e-02
	-5.165931063274390e+01
	-5.166931058107290e-08
	5.166931058107290e-11

 125	1.182799999999998e-02
	-5.432330651513404e+01
	-5.433330646079928e-08
	5.433330646079928e-11

 126	1.192799999999998e-02
	-5.693369185252599e+01
	-5.694369179558104e-08
	5.694369179558103e-11

 127	1.202799999999998e-02
	-5.948789050974737e+01
	-5.949789045024837e-08
	5.949789045024838e-11

 128	1.212799999999998e-02
	-6.198338180109577e+01
	-6.199338173910141e-08
	6.199338173910140e-11

 129	1.222799999999998e-02
	-6.441770297795082e+01
	-6.442770291352226e-08
	6.442770291352225e-11

 130	1.232799999999998e-02
	-6.678845165921014e+01
	-6.679845159241089e-08
	6.679845159241090e-11

 131	1.242799999999998e-02
	-6.909328820214932e+01
	-6.910328813304534e-08
	6.910328813304533e-11

 132	1.252799999999998e-02
	-7.132993801136681e+01
	-7.133993794002622e-08
	7.133993794002623e-11

 133	1.262799999999998e-02
	-7.349619378353479e+01
	-7.350619371002802e-08
	7.350619371002802e-11

 134	1.272799999999998e-02
	-7.558991768574147e+01
	-7.559991761014101e-08
	7.559991761014102e-11

 135	1.282799999999998e-02
	-7.760904346527367e+01
	-7.761904338765413e-08
	7.761904338765413e-11

 136	1.292799999999998e-02
	-7.955157848875902e+01
	-7.956157840919698e-08
	7.956157840919698e-11

 137	1.302799999999998e-02
	-8.141560570865444e+01
	-8.142560562722840e-08
	8.142560562722839e-11

 138	1.312799999999997e-02
	-8.319928555514061e+01
	-8.320928547193092e-08
	8.320928547193091e-11

 139	1.322799999999997e-02
	-8.490085775155532e+01
	-8.491085766664408e-08
	8.491085766664408e-11

 140	1.332799999999997e-02
	-8.651864305157405e+01
	-8.652864296504506e-08
	8.652864296504506e-11

 141	1.342799999999997e-02
	-8.805104489642321e+01
	-8.806104480836183e-08
	8.806104480836183e-11

 142	1.352799999999997e-02
	-8.949655099049109e+01
	-8.950655090098420e-08
	8.950655090098420e-11

 143	1.362799999999997e-02
	-9.085373479378090e+01
	-9.086373470291683e-08
	9.086373470291684e-11

 144	1.372799999999997e-02
	-9.212125692973359e+01
	-9.213125683760201e-08
	9.213125683760201e-11

 145	1.382799999999997e-02
	-9.329786650703076e+01
	-9.330786641372260e-08
	9.330786641372262e-11

 146	1.392799999999997e-02
	-9.438240235407342e+01
	-9.439240225968073e-08
	9.439240225968075e-11

 147	1.402799999999997e-02
	-9.537379416491814e+01
	-9.538379406953407e-08
	9.538379406953407e-11

 148	1.412799999999997e-02
	-9.627106355553980e+01
	-9.628106345925846e-08
	9.628106345925847e-11

 149	1.422799999999997e-02
	-9.707332502937848e+01
	-9.708332493229489e-08
	9.708332493229491e-11

 150	1.432799999999997e-02
	-9.777978685121775e+01
	-9.778978675342769e-08
	9.778978675342770e-11

 151	1.442799999999997e-02
	-9.838975182853160e+01
	-9.839975173013161e-08
	9.839975173013160e-11

 152	1.452799999999997e-02
	-9.890261799952937e+01
	-9.891261790061650e-08
	9.891261790061651e-11

 153	1.462799999999997e-02
	-9.931787922721939e+01
	-9.932787912789129e-08
	9.932787912789128e-11

 154	1.472799999999997e-02
	-9.963512569890503e+01
	-9.964512559925968e-08
	9.964512559925968e-11

 155	1.482799999999996e-02
	-9.985404433062034e+01
	-9.986404423075606e-08
	9.986404423075605e-11

 156	1.492799999999996e-02
	-9.997441907610620e+01
	-9.998441897612156e-08
	9.998441897612154e-11

 157	1.502799999999996e-02
	-9.999613114002184e+01
	-1.000061310400155e-07
	1.000061310400155e-10

 158	1.512799999999996e-02
	-9.991915909518148e+01
	-9.992915899525209e-08
	9.992915899525208e-11

 159	1.522799999999996e-02
	-9.974357890370047e+01
	-9.975357880394667e-08
	9.975357880394666e-11

 160	1.532799999999996e-02
	-9.946956384202971e+01
	-9.947956374254992e-08
	9.947956374254990e-11

 161	1.542799999999996e-02
	-9.909738432995286e+01
	-9.910738423084523e-08
	9.910738423084524e-11

 162	1.552799999999996e-02
	-9.862740766371454e+01
	-9.863740756507689e-08
	9.863740756507690e-11

 163	1.562799999999996e-02
	-9.806009765354335e+01
	-9.807009755547298e-08
	9.807009755547301e-11

 164	1.572799999999996e-02
	-9.739601416592721e+01
	-9.740601406852093e-08
	9.740601406852094e-11

 165	1.582799999999996e-02
	-9.663581257109257e+01
	-9.664581247444648e-08
	9.664581247444648e-11

 166	1.592799999999996e-02
	-9.578024309623332e+01
	-9.579024300044279e-08
	9.579024300044280e-11

 167	1.602799999999996e-02
	-9.483015008512696e+01
	-9.484014999028651e-08
	9.484014999028654e-11

 168	1.612799999999996e-02
	-9.378647116486935e+01
	-9.379647107107259e-08
	9.379647107107260e-11

 169	1.622799999999996e-02
	-9.265023632054991e+01
	-9.266023622788938e-08
	9.266023622788937e-11

 170	1.632799999999996e-02
	-9.142256687878063e+01
	-9.143256678734775e-08
	9.143256678734777e-11

 171	1.642799999999996e-02
	-9.010467440108233e+01
	-9.011467431096733e-08
	9.011467431096734e-11

 172	1.652799999999996e-02
	-8.869785948821929e+01
	-8.870785939951110e-08
	8.870785939951111e-11

 173	1.662799999999996e-02
	-8.720351049666371e+01
	-8.721351040944985e-08
	8.721351040944984e-11

 174	1.672799999999995e-02
	-8.562310216845540e+01
	-8.563310208282195e-08
	8.563310208282195e-11

 175	1.682799999999995e-02
	-8.395819417580920e+01
	-8.396819409184061e-08
	8.396819409184061e-11

 176	1.692799999999995e-02
	-8.221042958190708e+01
	-8.222042949968623e-08
	8.222042949968622e-11

 177	1.702799999999995e-02
	-8.038153321939309e+01
	-8.039153313900109e-08
	8.039153313900110e-11

 178	1.712799999999995e-02
	-7.847330998817166e+01
	-7.848330990968787e-08
	7.848330990968786e-11

 179	1.722799999999995e-02
	-7.648764307418942e+01
	-7.649764299769126e-08
	7.649764299769126e-11

 180	1.732799999999995e-02
	-7.442649209095804e+01
	-7.443649201652098e-08
	7.443649201652098e-11

 181	1.742799999999995e-02
	-7.229189114565216e+01
	-7.230189107334965e-08
	7.230189107334964e-11

 182	1.752799999999995e-02
	-7.008594683169132e+01
	-7.009594676159469e-08
	7.009594676159468e-11

 183	1.762799999999995e-02
	-6.781083614978650e+01
	-6.782083608196493e-08
	6.782083608196491e-11

 184	1.772799999999995e-02
	-6.546880435950330e+01
	-6.547880429402364e-08
	6.547880429402365e-11

 185	1.782799999999995e-02
	-6.306216276346181e+01
	-6.307216270038870e-08
	6.307216270038870e-11

 186	1.792799999999995e-02
	-6.059328642635996e+01
	-6.060328636575562e-08
	6.060328636575563e-11

 187	1.802799999999995e-02
	-5.806461183107142e+01
	-5.807461177299562e-08
	5.807461177299562e-11

 188	1.812799999999995e-02
	-5.547863447413116e+01
	-5.548863441864117e-08
	5.548863441864117e-11

 189	1.822799999999995e-02
	-5.283790640298164e+01
	-5.284790635013215e-08
	5.284790635013215e-11

 190	1.832799999999995e-02
	-5.014503369741013e+01
	-5.015503364725326e-08
	5.015503364725325e-11

 191	1.842799999999994e-02
	-4.740267389766256e+01
	-4.741267385024770e-08
	4.741267385024770e-11

 192	1.852799999999994e-02
	-4.461353338177217e+01
	-4.462353333714602e-08
	4.462353333714603e-11

 193	1.862799999999994e-02
	-4.178036469469114e+01
	-4.179036465289758e-08
	4.179036465289759e-11

 194	1.872799999999994e-02
	-3.890596383186100e+01
	-3.891596379294109e-08
	3.891596379294108e-11

 195	1.882799999999994e-02
	-3.599316747990275e+01
	-3.600316744389460e-08
	3.600316744389460e-11

 196	1.892799999999994e-02
	-3.304485021714962e+01
	-3.305485018408832e-08
	3.305485018408832e-11

 197	1.902799999999994e-02
	-3.006392167678527e+01
	-3.007392164670279e-08
	3.007392164670278e-11

 198	1.912799999999994e-02
	-2.705332367538719e+01
	-2.706332364831212e-08
	2.706332364831212e-11

 199	1.922799999999994e-02
	-2.401602730970893e+01
	-2.402602728566611e-08
	2.402602728566611e-11

 200	1.932799999999994e-02
	-2.095503002456594e+01
	-2.096503000357563e-08
	2.096503000357563e-11

 201	1.942799999999994e-02
	-1.787335265472022e+01
	-1.788335263679613e-08
	1.788335263679613e-11
