Title: * simple resistive attenuator (voltage divider)
Date: Wed Nov 26 18:09:06  2025
Plotname: Transient Analysis
Flags: real
No. Variables: 4
No. Points: 59
Variables:
	0	time	time
	1	v(in)	voltage
	2	v(out)	voltage
	3	i(vin)	current
Values:
 0	0.000000000000000e+00
	0.000000000000000e+00
	0.000000000000000e+00
	0.000000000000000e+00

 1	5.000000000000001e-07
	3.141587485879564e-02
	1.570793742939782e-02
	-1.570793742939782e-06

 2	1.000000000000000e-06
	6.283143965558952e-02
	3.141571982779476e-02
	-3.141571982779476e-06

 3	2.000000000000000e-06
	1.256603988335261e-01
	6.283019941676304e-02
	-6.283019941676305e-06

 4	4.000000000000001e-06
	2.513009544333749e-01
	1.256504772166874e-01
	-1.256504772166874e-05

 5	8.000000000000001e-06
	5.024431817976956e-01
	2.512215908988478e-01
	-2.512215908988478e-05

 6	1.600000000000000e-05
	1.003617148512149e+00
	5.018085742560745e-01
	-5.018085742560745e-05

 7	3.200000000000001e-05
	1.997099805144070e+00
	9.985499025720354e-01
	-9.985499025720352e-05

 8	6.400000000000001e-05
	3.913736668372025e+00
	1.956868334186013e+00
	-1.956868334186012e-04

 9	1.280000000000000e-04
	7.203090248879070e+00
	3.601545124439535e+00
	-3.601545124439535e-04

 10	2.280000000000000e-04
	9.904614256966513e+00
	4.952307128483256e+00
	-4.952307128483257e-04

 11	3.280000000000000e-04
	8.822912264349533e+00
	4.411456132174767e+00
	-4.411456132174767e-04

 12	4.280000000000000e-04
	4.371157666509329e+00
	2.185578833254664e+00
	-2.185578833254665e-04

 13	5.280000000000000e-04
	-1.750230589752761e+00
	-8.751152948763806e-01
	8.751152948763804e-05

 14	6.280000000000001e-04
	-7.203090248879072e+00
	-3.601545124439536e+00
	3.601545124439536e-04

 15	7.280000000000001e-04
	-9.904614256966513e+00
	-4.952307128483256e+00
	4.952307128483257e-04

 16	8.280000000000002e-04
	-8.822912264349528e+00
	-4.411456132174764e+00
	4.411456132174764e-04

 17	9.280000000000002e-04
	-4.371157666509317e+00
	-2.185578833254659e+00
	2.185578833254659e-04

 18	1.028000000000000e-03
	1.750230589752773e+00
	8.751152948763863e-01
	-8.751152948763863e-05

 19	1.128000000000000e-03
	7.203090248879084e+00
	3.601545124439542e+00
	-3.601545124439542e-04

 20	1.228000000000000e-03
	9.904614256966514e+00
	4.952307128483258e+00
	-4.952307128483257e-04

 21	1.328000000000000e-03
	8.822912264349519e+00
	4.411456132174759e+00
	-4.411456132174760e-04

 22	1.428000000000000e-03
	4.371157666509303e+00
	2.185578833254652e+00
	-2.185578833254652e-04

 23	1.528000000000000e-03
	-1.750230589752789e+00
	-8.751152948763945e-01
	8.751152948763945e-05

 24	1.628000000000001e-03
	-7.203090248879089e+00
	-3.601545124439545e+00
	3.601545124439545e-04

 25	1.728000000000001e-03
	-9.904614256966516e+00
	-4.952307128483259e+00
	4.952307128483259e-04

 26	1.828000000000001e-03
	-8.822912264349512e+00
	-4.411456132174756e+00
	4.411456132174756e-04

 27	1.928000000000001e-03
	-4.371157666509304e+00
	-2.185578833254652e+00
	2.185578833254652e-04

 28	2.028000000000001e-03
	1.750230589752805e+00
	8.751152948764028e-01
	-8.751152948764027e-05

 29	2.128000000000001e-03
	7.203090248879088e+00
	3.601545124439545e+00
	-3.601545124439545e-04

 30	2.228000000000000e-03
	9.904614256966513e+00
	4.952307128483256e+00
	-4.952307128483257e-04

 31	2.328000000000000e-03
	8.822912264349528e+00
	4.411456132174764e+00
	-4.411456132174764e-04

 32	2.428000000000000e-03
	4.371157666509337e+00
	2.185578833254668e+00
	-2.185578833254668e-04

 33	2.528000000000000e-03
	-1.750230589752751e+00
	-8.751152948763758e-01
	8.751152948763758e-05

 34	2.628000000000000e-03
	-7.203090248879038e+00
	-3.601545124439519e+00
	3.601545124439519e-04

 35	2.728000000000000e-03
	-9.904614256966507e+00
	-4.952307128483254e+00
	4.952307128483253e-04

 36	2.827999999999999e-03
	-8.822912264349554e+00
	-4.411456132174778e+00
	4.411456132174777e-04

 37	2.927999999999999e-03
	-4.371157666509403e+00
	-2.185578833254701e+00
	2.185578833254701e-04

 38	3.027999999999999e-03
	1.750230589752715e+00
	8.751152948763576e-01
	-8.751152948763577e-05

 39	3.127999999999999e-03
	7.203090248879013e+00
	3.601545124439507e+00
	-3.601545124439506e-04

 40	3.227999999999999e-03
	9.904614256966500e+00
	4.952307128483250e+00
	-4.952307128483250e-04

 41	3.327999999999998e-03
	8.822912264349588e+00
	4.411456132174794e+00
	-4.411456132174794e-04

 42	3.427999999999998e-03
	4.371157666509434e+00
	2.185578833254717e+00
	-2.185578833254717e-04

 43	3.527999999999998e-03
	-1.750230589752644e+00
	-8.751152948763221e-01
	8.751152948763222e-05

 44	3.627999999999998e-03
	-7.203090248878961e+00
	-3.601545124439481e+00
	3.601545124439481e-04

 45	3.727999999999998e-03
	-9.904614256966497e+00
	-4.952307128483249e+00
	4.952307128483249e-04

 46	3.827999999999998e-03
	-8.822912264349604e+00
	-4.411456132174802e+00
	4.411456132174802e-04

 47	3.927999999999997e-03
	-4.371157666509500e+00
	-2.185578833254750e+00
	2.185578833254750e-04

 48	4.027999999999998e-03
	1.750230589752608e+00
	8.751152948763040e-01
	-8.751152948763040e-05

 49	4.127999999999998e-03
	7.203090248878986e+00
	3.601545124439493e+00
	-3.601545124439493e-04

 50	4.227999999999998e-03
	9.904614256966495e+00
	4.952307128483248e+00
	-4.952307128483247e-04

 51	4.327999999999999e-03
	8.822912264349590e+00
	4.411456132174795e+00
	-4.411456132174795e-04

 52	4.427999999999999e-03
	4.371157666509405e+00
	2.185578833254703e+00
	-2.185578833254703e-04

 53	4.527999999999999e-03
	-1.750230589752677e+00
	-8.751152948763384e-01
	8.751152948763384e-05

 54	4.627999999999999e-03
	-7.203090248879035e+00
	-3.601545124439518e+00
	3.601545124439518e-04

 55	4.728000000000000e-03
	-9.904614256966509e+00
	-4.952307128483254e+00
	4.952307128483254e-04

 56	4.828000000000000e-03
	-8.822912264349556e+00
	-4.411456132174778e+00
	4.411456132174778e-04

 57	4.928000000000000e-03
	-4.371157666509343e+00
	-2.185578833254672e+00
	2.185578833254672e-04

 58	5.000000000000000e-03
	-1.224646799147353e-14
	-6.123233995736766e-15
	6.123233995736766e-19

