Title: * simple resistive attenuator (voltage divider)
Date: Wed Nov 26 18:13:16  2025
Plotname: Transient Analysis
Flags: real
No. Variables: 4
No. Points: 408
Variables:
	0	time	time
	1	v(in)	voltage
	2	v(out)	voltage
	3	i(vin)	current
Values:
 0	0.000000000000000e+00
	0.000000000000000e+00
	0.000000000000000e+00
	0.000000000000000e+00

 1	1.000000000000000e-06
	3.141592601912666e-02
	1.570796300956333e-02
	-1.570796300956333e-06

 2	2.000000000000000e-06
	6.283184893762572e-02
	3.141592446881286e-02
	-3.141592446881286e-06

 3	4.000000000000001e-06
	1.256636730702326e-01
	6.283183653511629e-02
	-6.283183653511629e-06

 4	8.000000000000001e-06
	2.513271477003727e-01
	1.256635738501863e-01
	-1.256635738501863e-05

 5	1.600000000000000e-05
	5.026527078818863e-01
	2.513263539409432e-01
	-2.513263539409432e-05

 6	3.200000000000001e-05
	1.005292715673065e+00
	5.026463578365327e-01
	-5.026463578365327e-05

 7	6.400000000000001e-05
	2.010483832545758e+00
	1.005241916272879e+00
	-1.005241916272879e-04

 8	1.280000000000000e-04
	4.020154936295320e+00
	2.010077468147660e+00
	-2.010077468147660e-04

 9	2.280000000000000e-04
	7.156707866141768e+00
	3.578353933070884e+00
	-3.578353933070884e-04

 10	3.280000000000000e-04
	1.028619798936415e+01
	5.143098994682073e+00
	-5.143098994682073e-04

 11	4.280000000000000e-04
	1.340553687703875e+01
	6.702768438519376e+00
	-6.702768438519375e-04

 12	5.280000000000000e-04
	1.651164611828581e+01
	8.255823059142903e+00
	-8.255823059142904e-04

 13	6.280000000000001e-04
	1.960146035828931e+01
	9.800730179144654e+00
	-9.800730179144654e-04

 14	7.280000000000001e-04
	2.267193032343216e+01
	1.133596516171608e+01
	-1.133596516171608e-03

 15	8.280000000000002e-04
	2.572002583056111e+01
	1.286001291528055e+01
	-1.286001291528055e-03

 16	9.280000000000002e-04
	2.874273877741164e+01
	1.437136938870582e+01
	-1.437136938870582e-03

 17	1.028000000000000e-03
	3.173708611124178e+01
	1.586854305562089e+01
	-1.586854305562089e-03

 18	1.128000000000000e-03
	3.470011277274496e+01
	1.735005638637248e+01
	-1.735005638637248e-03

 19	1.228000000000000e-03
	3.762889461233683e+01
	1.881444730616841e+01
	-1.881444730616841e-03

 20	1.328000000000000e-03
	4.052054127593782e+01
	2.026027063796891e+01
	-2.026027063796891e-03

 21	1.428000000000000e-03
	4.337219905740369e+01
	2.168609952870185e+01
	-2.168609952870185e-03

 22	1.528000000000000e-03
	4.618105371478897e+01
	2.309052685739449e+01
	-2.309052685739448e-03

 23	1.628000000000001e-03
	4.894433324766393e+01
	2.447216662383196e+01
	-2.447216662383196e-03

 24	1.728000000000001e-03
	5.165931063274441e+01
	2.582965531637220e+01
	-2.582965531637220e-03

 25	1.828000000000001e-03
	5.432330651513450e+01
	2.716165325756725e+01
	-2.716165325756725e-03

 26	1.928000000000001e-03
	5.693369185252646e+01
	2.846684592626323e+01
	-2.846684592626323e-03

 27	2.028000000000001e-03
	5.948789050974788e+01
	2.974394525487395e+01
	-2.974394525487394e-03

 28	2.128000000000001e-03
	6.198338180109624e+01
	3.099169090054812e+01
	-3.099169090054812e-03

 29	2.228000000000000e-03
	6.441770297795128e+01
	3.220885148897564e+01
	-3.220885148897564e-03

 30	2.328000000000000e-03
	6.678845165921064e+01
	3.339422582960532e+01
	-3.339422582960532e-03

 31	2.428000000000000e-03
	6.909328820214982e+01
	3.454664410107492e+01
	-3.454664410107491e-03

 32	2.528000000000000e-03
	7.132993801136728e+01
	3.566496900568364e+01
	-3.566496900568364e-03

 33	2.628000000000000e-03
	7.349619378353528e+01
	3.674809689176764e+01
	-3.674809689176764e-03

 34	2.728000000000000e-03
	7.558991768574195e+01
	3.779495884287098e+01
	-3.779495884287098e-03

 35	2.827999999999999e-03
	7.760904346527414e+01
	3.880452173263707e+01
	-3.880452173263707e-03

 36	2.927999999999999e-03
	7.955157848875947e+01
	3.977578924437974e+01
	-3.977578924437974e-03

 37	3.027999999999999e-03
	8.141560570865488e+01
	4.070780285432744e+01
	-4.070780285432744e-03

 38	3.127999999999999e-03
	8.319928555514103e+01
	4.159964277757052e+01
	-4.159964277757052e-03

 39	3.227999999999999e-03
	8.490085775155573e+01
	4.245042887577787e+01
	-4.245042887577787e-03

 40	3.327999999999998e-03
	8.651864305157444e+01
	4.325932152578722e+01
	-4.325932152578722e-03

 41	3.427999999999998e-03
	8.805104489642359e+01
	4.402552244821180e+01
	-4.402552244821180e-03

 42	3.527999999999998e-03
	8.949655099049146e+01
	4.474827549524574e+01
	-4.474827549524572e-03

 43	3.627999999999998e-03
	9.085373479378124e+01
	4.542686739689062e+01
	-4.542686739689062e-03

 44	3.727999999999998e-03
	9.212125692973392e+01
	4.606062846486696e+01
	-4.606062846486696e-03

 45	3.827999999999998e-03
	9.329786650703106e+01
	4.664893325351553e+01
	-4.664893325351553e-03

 46	3.927999999999997e-03
	9.438240235407370e+01
	4.719120117703686e+01
	-4.719120117703685e-03

 47	4.027999999999998e-03
	9.537379416491841e+01
	4.768689708245920e+01
	-4.768689708245921e-03

 48	4.127999999999998e-03
	9.627106355554004e+01
	4.813553177777002e+01
	-4.813553177777002e-03

 49	4.227999999999998e-03
	9.707332502937872e+01
	4.853666251468936e+01
	-4.853666251468936e-03

 50	4.327999999999999e-03
	9.777978685121796e+01
	4.888989342560899e+01
	-4.888989342560899e-03

 51	4.427999999999999e-03
	9.838975182853179e+01
	4.919487591426589e+01
	-4.919487591426589e-03

 52	4.527999999999999e-03
	9.890261799952953e+01
	4.945130899976477e+01
	-4.945130899976477e-03

 53	4.627999999999999e-03
	9.931787922721952e+01
	4.965893961360976e+01
	-4.965893961360976e-03

 54	4.728000000000000e-03
	9.963512569890511e+01
	4.981756284945256e+01
	-4.981756284945255e-03

 55	4.828000000000000e-03
	9.985404433062040e+01
	4.992702216531021e+01
	-4.992702216531020e-03

 56	4.928000000000000e-03
	9.997441907610623e+01
	4.998720953805311e+01
	-4.998720953805312e-03

 57	5.028000000000000e-03
	9.999613114002183e+01
	4.999806557001092e+01
	-4.999806557001092e-03

 58	5.128000000000001e-03
	9.991915909518144e+01
	4.995957954759073e+01
	-4.995957954759073e-03

 59	5.228000000000001e-03
	9.974357890370038e+01
	4.987178945185019e+01
	-4.987178945185019e-03

 60	5.328000000000001e-03
	9.946956384202959e+01
	4.973478192101479e+01
	-4.973478192101480e-03

 61	5.428000000000001e-03
	9.909738432995269e+01
	4.954869216497634e+01
	-4.954869216497635e-03

 62	5.528000000000002e-03
	9.862740766371432e+01
	4.931370383185717e+01
	-4.931370383185717e-03

 63	5.628000000000002e-03
	9.806009765354311e+01
	4.903004882677156e+01
	-4.903004882677156e-03

 64	5.728000000000002e-03
	9.739601416592690e+01
	4.869800708296345e+01
	-4.869800708296345e-03

 65	5.828000000000002e-03
	9.663581257109223e+01
	4.831790628554612e+01
	-4.831790628554612e-03

 66	5.928000000000003e-03
	9.578024309623292e+01
	4.789012154811647e+01
	-4.789012154811646e-03

 67	6.028000000000003e-03
	9.483015008512650e+01
	4.741507504256326e+01
	-4.741507504256326e-03

 68	6.128000000000003e-03
	9.378647116486884e+01
	4.689323558243442e+01
	-4.689323558243442e-03

 69	6.228000000000003e-03
	9.265023632054935e+01
	4.632511816027468e+01
	-4.632511816027468e-03

 70	6.328000000000004e-03
	9.142256687878006e+01
	4.571128343939003e+01
	-4.571128343939003e-03

 71	6.428000000000004e-03
	9.010467440108167e+01
	4.505233720054083e+01
	-4.505233720054083e-03

 72	6.528000000000004e-03
	8.869785948821860e+01
	4.434892974410930e+01
	-4.434892974410930e-03

 73	6.628000000000005e-03
	8.720351049666296e+01
	4.360175524833149e+01
	-4.360175524833147e-03

 74	6.728000000000005e-03
	8.562310216845457e+01
	4.281155108422728e+01
	-4.281155108422728e-03

 75	6.828000000000005e-03
	8.395819417580832e+01
	4.197909708790416e+01
	-4.197909708790416e-03

 76	6.928000000000005e-03
	8.221042958190614e+01
	4.110521479095308e+01
	-4.110521479095307e-03

 77	7.028000000000006e-03
	8.038153321939210e+01
	4.019076660969606e+01
	-4.019076660969605e-03

 78	7.128000000000006e-03
	7.847330998817060e+01
	3.923665499408530e+01
	-3.923665499408530e-03

 79	7.228000000000006e-03
	7.648764307418830e+01
	3.824382153709416e+01
	-3.824382153709415e-03

 80	7.328000000000006e-03
	7.442649209095686e+01
	3.721324604547843e+01
	-3.721324604547843e-03

 81	7.428000000000007e-03
	7.229189114565092e+01
	3.614594557282546e+01
	-3.614594557282546e-03

 82	7.528000000000007e-03
	7.008594683169001e+01
	3.504297341584500e+01
	-3.504297341584501e-03

 83	7.628000000000007e-03
	6.781083614978515e+01
	3.390541807489257e+01
	-3.390541807489257e-03

 84	7.728000000000007e-03
	6.546880435950190e+01
	3.273440217975095e+01
	-3.273440217975095e-03

 85	7.828000000000007e-03
	6.306216276346035e+01
	3.153108138173018e+01
	-3.153108138173017e-03

 86	7.928000000000006e-03
	6.059328642635847e+01
	3.029664321317924e+01
	-3.029664321317924e-03

 87	8.028000000000006e-03
	5.806461183106993e+01
	2.903230591553497e+01
	-2.903230591553496e-03

 88	8.128000000000005e-03
	5.547863447412959e+01
	2.773931723706480e+01
	-2.773931723706480e-03

 89	8.228000000000004e-03
	5.283790640298008e+01
	2.641895320149004e+01
	-2.641895320149004e-03

 90	8.328000000000004e-03
	5.014503369740850e+01
	2.507251684870425e+01
	-2.507251684870425e-03

 91	8.428000000000003e-03
	4.740267389766090e+01
	2.370133694883045e+01
	-2.370133694883045e-03

 92	8.528000000000003e-03
	4.461353338177053e+01
	2.230676669088527e+01
	-2.230676669088527e-03

 93	8.628000000000002e-03
	4.178036469468943e+01
	2.089018234734472e+01
	-2.089018234734472e-03

 94	8.728000000000001e-03
	3.890596383185931e+01
	1.945298191592966e+01
	-1.945298191592965e-03

 95	8.828000000000001e-03
	3.599316747990105e+01
	1.799658373995052e+01
	-1.799658373995052e-03

 96	8.928000000000000e-03
	3.304485021714785e+01
	1.652242510857392e+01
	-1.652242510857392e-03

 97	9.028000000000000e-03
	3.006392167678352e+01
	1.503196083839176e+01
	-1.503196083839176e-03

 98	9.127999999999999e-03
	2.705332367538538e+01
	1.352666183769269e+01
	-1.352666183769269e-03

 99	9.227999999999998e-03
	2.401602730970707e+01
	1.200801365485353e+01
	-1.200801365485353e-03

 100	9.327999999999998e-03
	2.095503002456415e+01
	1.047751501228207e+01
	-1.047751501228207e-03

 101	9.427999999999997e-03
	1.787335265471841e+01
	8.936676327359207e+00
	-8.936676327359207e-04

 102	9.527999999999997e-03
	1.477403644367849e+01
	7.387018221839246e+00
	-7.387018221839246e-04

 103	9.627999999999996e-03
	1.166014004235970e+01
	5.830070021179848e+00
	-5.830070021179848e-04

 104	9.727999999999995e-03
	8.534736490564859e+00
	4.267368245282429e+00
	-4.267368245282429e-04

 105	9.827999999999995e-03
	5.400910184265058e+00
	2.700455092132529e+00
	-2.700455092132529e-04

 106	9.927999999999994e-03
	2.261753831673175e+00
	1.130876915836588e+00
	-1.130876915836588e-04

 107	1.002799999999999e-02
	-8.796345988856742e-01
	-4.398172994428372e-01
	4.398172994428371e-05

 108	1.012799999999999e-02
	-4.020154936295085e+00
	-2.010077468147542e+00
	2.010077468147543e-04

 109	1.022799999999999e-02
	-7.156707866141515e+00
	-3.578353933070757e+00
	3.578353933070757e-04

 110	1.032799999999999e-02
	-1.028619798936392e+01
	-5.143098994681960e+00
	5.143098994681960e-04

 111	1.042799999999999e-02
	-1.340553687703847e+01
	-6.702768438519235e+00
	6.702768438519235e-04

 112	1.052799999999999e-02
	-1.651164611828550e+01
	-8.255823059142751e+00
	8.255823059142751e-04

 113	1.062799999999999e-02
	-1.960146035828903e+01
	-9.800730179144516e+00
	9.800730179144515e-04

 114	1.072799999999999e-02
	-2.267193032343178e+01
	-1.133596516171589e+01
	1.133596516171589e-03

 115	1.082799999999999e-02
	-2.572002583056075e+01
	-1.286001291528038e+01
	1.286001291528038e-03

 116	1.092799999999999e-02
	-2.874273877741128e+01
	-1.437136938870564e+01
	1.437136938870564e-03

 117	1.102799999999999e-02
	-3.173708611124135e+01
	-1.586854305562068e+01
	1.586854305562068e-03

 118	1.112799999999999e-02
	-3.470011277274456e+01
	-1.735005638637228e+01
	1.735005638637228e-03

 119	1.122799999999999e-02
	-3.762889461233642e+01
	-1.881444730616821e+01
	1.881444730616821e-03

 120	1.132799999999999e-02
	-4.052054127593735e+01
	-2.026027063796868e+01
	2.026027063796868e-03

 121	1.142799999999999e-02
	-4.337219905740326e+01
	-2.168609952870163e+01
	2.168609952870163e-03

 122	1.152799999999998e-02
	-4.618105371478853e+01
	-2.309052685739426e+01
	2.309052685739426e-03

 123	1.162799999999998e-02
	-4.894433324766343e+01
	-2.447216662383171e+01
	2.447216662383172e-03

 124	1.172799999999998e-02
	-5.165931063274390e+01
	-2.582965531637195e+01
	2.582965531637195e-03

 125	1.182799999999998e-02
	-5.432330651513404e+01
	-2.716165325756702e+01
	2.716165325756702e-03

 126	1.192799999999998e-02
	-5.693369185252599e+01
	-2.846684592626299e+01
	2.846684592626300e-03

 127	1.202799999999998e-02
	-5.948789050974737e+01
	-2.974394525487369e+01
	2.974394525487368e-03

 128	1.212799999999998e-02
	-6.198338180109577e+01
	-3.099169090054789e+01
	3.099169090054789e-03

 129	1.222799999999998e-02
	-6.441770297795082e+01
	-3.220885148897542e+01
	3.220885148897541e-03

 130	1.232799999999998e-02
	-6.678845165921014e+01
	-3.339422582960507e+01
	3.339422582960507e-03

 131	1.242799999999998e-02
	-6.909328820214932e+01
	-3.454664410107466e+01
	3.454664410107466e-03

 132	1.252799999999998e-02
	-7.132993801136681e+01
	-3.566496900568340e+01
	3.566496900568341e-03

 133	1.262799999999998e-02
	-7.349619378353479e+01
	-3.674809689176740e+01
	3.674809689176740e-03

 134	1.272799999999998e-02
	-7.558991768574147e+01
	-3.779495884287073e+01
	3.779495884287074e-03

 135	1.282799999999998e-02
	-7.760904346527367e+01
	-3.880452173263684e+01
	3.880452173263684e-03

 136	1.292799999999998e-02
	-7.955157848875902e+01
	-3.977578924437952e+01
	3.977578924437951e-03

 137	1.302799999999998e-02
	-8.141560570865444e+01
	-4.070780285432722e+01
	4.070780285432722e-03

 138	1.312799999999997e-02
	-8.319928555514061e+01
	-4.159964277757030e+01
	4.159964277757030e-03

 139	1.322799999999997e-02
	-8.490085775155532e+01
	-4.245042887577767e+01
	4.245042887577767e-03

 140	1.332799999999997e-02
	-8.651864305157405e+01
	-4.325932152578702e+01
	4.325932152578702e-03

 141	1.342799999999997e-02
	-8.805104489642321e+01
	-4.402552244821160e+01
	4.402552244821160e-03

 142	1.352799999999997e-02
	-8.949655099049109e+01
	-4.474827549524555e+01
	4.474827549524555e-03

 143	1.362799999999997e-02
	-9.085373479378090e+01
	-4.542686739689045e+01
	4.542686739689045e-03

 144	1.372799999999997e-02
	-9.212125692973359e+01
	-4.606062846486680e+01
	4.606062846486680e-03

 145	1.382799999999997e-02
	-9.329786650703076e+01
	-4.664893325351538e+01
	4.664893325351538e-03

 146	1.392799999999997e-02
	-9.438240235407342e+01
	-4.719120117703671e+01
	4.719120117703671e-03

 147	1.402799999999997e-02
	-9.537379416491814e+01
	-4.768689708245907e+01
	4.768689708245907e-03

 148	1.412799999999997e-02
	-9.627106355553980e+01
	-4.813553177776990e+01
	4.813553177776990e-03

 149	1.422799999999997e-02
	-9.707332502937848e+01
	-4.853666251468924e+01
	4.853666251468924e-03

 150	1.432799999999997e-02
	-9.777978685121775e+01
	-4.888989342560888e+01
	4.888989342560887e-03

 151	1.442799999999997e-02
	-9.838975182853160e+01
	-4.919487591426581e+01
	4.919487591426581e-03

 152	1.452799999999997e-02
	-9.890261799952937e+01
	-4.945130899976469e+01
	4.945130899976469e-03

 153	1.462799999999997e-02
	-9.931787922721939e+01
	-4.965893961360970e+01
	4.965893961360970e-03

 154	1.472799999999997e-02
	-9.963512569890503e+01
	-4.981756284945252e+01
	4.981756284945251e-03

 155	1.482799999999996e-02
	-9.985404433062034e+01
	-4.992702216531017e+01
	4.992702216531017e-03

 156	1.492799999999996e-02
	-9.997441907610620e+01
	-4.998720953805311e+01
	4.998720953805311e-03

 157	1.502799999999996e-02
	-9.999613114002184e+01
	-4.999806557001093e+01
	4.999806557001092e-03

 158	1.512799999999996e-02
	-9.991915909518148e+01
	-4.995957954759074e+01
	4.995957954759074e-03

 159	1.522799999999996e-02
	-9.974357890370047e+01
	-4.987178945185023e+01
	4.987178945185023e-03

 160	1.532799999999996e-02
	-9.946956384202971e+01
	-4.973478192101486e+01
	4.973478192101486e-03

 161	1.542799999999996e-02
	-9.909738432995286e+01
	-4.954869216497644e+01
	4.954869216497642e-03

 162	1.552799999999996e-02
	-9.862740766371454e+01
	-4.931370383185727e+01
	4.931370383185727e-03

 163	1.562799999999996e-02
	-9.806009765354335e+01
	-4.903004882677168e+01
	4.903004882677168e-03

 164	1.572799999999996e-02
	-9.739601416592721e+01
	-4.869800708296361e+01
	4.869800708296360e-03

 165	1.582799999999996e-02
	-9.663581257109257e+01
	-4.831790628554629e+01
	4.831790628554629e-03

 166	1.592799999999996e-02
	-9.578024309623332e+01
	-4.789012154811667e+01
	4.789012154811667e-03

 167	1.602799999999996e-02
	-9.483015008512696e+01
	-4.741507504256348e+01
	4.741507504256348e-03

 168	1.612799999999996e-02
	-9.378647116486935e+01
	-4.689323558243468e+01
	4.689323558243468e-03

 169	1.622799999999996e-02
	-9.265023632054991e+01
	-4.632511816027495e+01
	4.632511816027495e-03

 170	1.632799999999996e-02
	-9.142256687878063e+01
	-4.571128343939031e+01
	4.571128343939032e-03

 171	1.642799999999996e-02
	-9.010467440108233e+01
	-4.505233720054117e+01
	4.505233720054117e-03

 172	1.652799999999996e-02
	-8.869785948821929e+01
	-4.434892974410965e+01
	4.434892974410965e-03

 173	1.662799999999996e-02
	-8.720351049666371e+01
	-4.360175524833186e+01
	4.360175524833186e-03

 174	1.672799999999995e-02
	-8.562310216845540e+01
	-4.281155108422771e+01
	4.281155108422771e-03

 175	1.682799999999995e-02
	-8.395819417580920e+01
	-4.197909708790460e+01
	4.197909708790460e-03

 176	1.692799999999995e-02
	-8.221042958190708e+01
	-4.110521479095355e+01
	4.110521479095353e-03

 177	1.702799999999995e-02
	-8.038153321939309e+01
	-4.019076660969655e+01
	4.019076660969655e-03

 178	1.712799999999995e-02
	-7.847330998817166e+01
	-3.923665499408584e+01
	3.923665499408584e-03

 179	1.722799999999995e-02
	-7.648764307418942e+01
	-3.824382153709471e+01
	3.824382153709471e-03

 180	1.732799999999995e-02
	-7.442649209095804e+01
	-3.721324604547902e+01
	3.721324604547902e-03

 181	1.742799999999995e-02
	-7.229189114565216e+01
	-3.614594557282608e+01
	3.614594557282608e-03

 182	1.752799999999995e-02
	-7.008594683169132e+01
	-3.504297341584566e+01
	3.504297341584566e-03

 183	1.762799999999995e-02
	-6.781083614978650e+01
	-3.390541807489325e+01
	3.390541807489325e-03

 184	1.772799999999995e-02
	-6.546880435950330e+01
	-3.273440217975165e+01
	3.273440217975165e-03

 185	1.782799999999995e-02
	-6.306216276346181e+01
	-3.153108138173091e+01
	3.153108138173090e-03

 186	1.792799999999995e-02
	-6.059328642635996e+01
	-3.029664321317998e+01
	3.029664321317998e-03

 187	1.802799999999995e-02
	-5.806461183107142e+01
	-2.903230591553572e+01
	2.903230591553571e-03

 188	1.812799999999995e-02
	-5.547863447413116e+01
	-2.773931723706558e+01
	2.773931723706558e-03

 189	1.822799999999995e-02
	-5.283790640298164e+01
	-2.641895320149082e+01
	2.641895320149082e-03

 190	1.832799999999995e-02
	-5.014503369741013e+01
	-2.507251684870507e+01
	2.507251684870506e-03

 191	1.842799999999994e-02
	-4.740267389766256e+01
	-2.370133694883128e+01
	2.370133694883128e-03

 192	1.852799999999994e-02
	-4.461353338177217e+01
	-2.230676669088609e+01
	2.230676669088609e-03

 193	1.862799999999994e-02
	-4.178036469469114e+01
	-2.089018234734557e+01
	2.089018234734557e-03

 194	1.872799999999994e-02
	-3.890596383186100e+01
	-1.945298191593050e+01
	1.945298191593050e-03

 195	1.882799999999994e-02
	-3.599316747990275e+01
	-1.799658373995138e+01
	1.799658373995138e-03

 196	1.892799999999994e-02
	-3.304485021714962e+01
	-1.652242510857481e+01
	1.652242510857481e-03

 197	1.902799999999994e-02
	-3.006392167678527e+01
	-1.503196083839264e+01
	1.503196083839263e-03

 198	1.912799999999994e-02
	-2.705332367538719e+01
	-1.352666183769359e+01
	1.352666183769359e-03

 199	1.922799999999994e-02
	-2.401602730970893e+01
	-1.200801365485447e+01
	1.200801365485447e-03

 200	1.932799999999994e-02
	-2.095503002456594e+01
	-1.047751501228297e+01
	1.047751501228297e-03

 201	1.942799999999994e-02
	-1.787335265472022e+01
